
T0514 000:051 SEGGER J-Link V6.00e Log File (0000ms, 0027ms total)
T0514 000:051 DLL Compiled: Aug  4 2016 09:37:38 (0000ms, 0027ms total)
T0514 000:051 Logging started @ 2018-10-04 10:55 (0000ms, 0027ms total)
T0514 000:051 JLINK_SetWarnOutHandler(...) (0000ms, 0027ms total)
T0514 000:051 JLINK_OpenEx(...)
Firmware: J-Link V9 compiled Jun  2 2222 22:22:22
Hardware: V9.00
S/N: 30000299
Feature(s): GDB, RDI, FlashBP, FlashDL, JFlash, RDDI  returns O.K. (0021ms, 0048ms total)
T0514 000:072 JLINK_SetErrorOutHandler(...) (0000ms, 0048ms total)
T0514 000:072 JLINK_ExecCommand("ProjectFile = "G:\stm32F4\GitRes\stm32F4-std-lib\DCMI\USER\JLinkSettings.ini"", ...).   returns 0x00 (0102ms, 0150ms total)
T0514 000:174 JLINK_ExecCommand("Device = STM32F407ZGTx", ...). Device "STM32F407ZG" selected.  returns 0x00 (0002ms, 0152ms total)
T0514 000:176 JLINK_ExecCommand("DisableConnectionTimeout", ...).   returns 0x01 (0000ms, 0152ms total)
T0514 000:176 JLINK_GetHardwareVersion()  returns 0x15F90 (0000ms, 0152ms total)
T0514 000:176 JLINK_GetDLLVersion()  returns 60005 (0000ms, 0152ms total)
T0514 000:176 JLINK_GetFirmwareString(...) (0000ms, 0152ms total)
T0514 000:176 JLINK_GetDLLVersion()  returns 60005 (0000ms, 0152ms total)
T0514 000:176 JLINK_GetCompileDateTime() (0000ms, 0152ms total)
T0514 000:176 JLINK_GetFirmwareString(...) (0000ms, 0152ms total)
T0514 000:176 JLINK_GetHardwareVersion()  returns 0x15F90 (0000ms, 0152ms total)
T0514 000:176 JLINK_TIF_Select(JLINKARM_TIF_SWD)  returns 0x00 (0001ms, 0153ms total)
T0514 000:177 JLINK_SetSpeed(10000) (0001ms, 0154ms total)
T0514 000:178 JLINK_GetId() >0x108 TIF>Found SWD-DP with ID 0x2BA01477 >0x0D TIF> >0x28 TIF> >0x0D TIF> >0x28 TIF> >0x0D TIF> >0x28 TIF> >0x0D TIF> >0x28 TIF> >0x0D TIF> >0x21 TIF> >0x0D TIF> >0x28 TIF> >0x0D TIF> >0x28 TIF> >0x0D TIF> >0x28 TIF> >0x0D TIF> >0x21 TIF> >0x0D TIF> >0x21 TIF> >0x0D TIF> >0x28 TIF> >0x0D TIF> >0x21 TIF> >0x0D TIF> >0x21 TIF> >0x0D TIF> >0x28 TIF> >0x0D TIF> >0x21 TIF> >0x0D TIF> >0x21 TIF> >0x0D TIF> >0x28 TIF> >0x0D TIF> >0x21 TIF> >0x0D TIF> >0x21 TIF> >0x0D TIF>
 >0x28 TIF> >0x0D TIF> >0x21 TIF> >0x0D TIF> >0x21 TIF> >0x0D TIF> >0x28 TIF> >0x0D TIF> >0x21 TIF> >0x0D TIF> >0x21 TIF> >0x108 TIF>Found SWD-DP with ID 0x2BA01477 >0x0D TIF> >0x28 TIF> >0x0D TIF> >0x28 TIF> >0x0D TIF> >0x28 TIF> >0x0D TIF> >0x28 TIF> >0x0D TIF> >0x21 TIF> >0x0D TIF> >0x28 TIF> >0x0D TIF> >0x28 TIF> >0x0D TIF> >0x21 TIF> >0x0D TIF> >0x21 TIF> >0x0D TIF> >0x21 TIF>AP-IDR: 0x24770011, Type: AHB-AP >0x0D TIF> >0x28 TIF> >0x0D TIF> >0x28 TIF> >0x0D TIF> >0x28 TIF> >0x0D TIF> >0x21 TIF>
 >0x0D TIF> >0x21 TIF> >0x0D TIF> >0x28 TIF> >0x0D TIF> >0x21 TIF> >0x0D TIF> >0x21 TIF>Found Cortex-M4 r0p1, Little endian. -- CPU_ReadMem(4 bytes @ 0xE000EDF0) -- CPU_ReadMem(4 bytes @ 0xE0002000)FPUnit: 6 code (BP) slots and 2 literal slots -- CPU_ReadMem(4 bytes @ 0xE000EDFC) -- CPU_ReadMem(4 bytes @ 0xE0001000) -- CPU_WriteMem(4 bytes @ 0xE0001000) -- CPU_ReadMem(4 bytes @ 0xE000ED88) -- CPU_WriteMem(4 bytes @ 0xE000ED88) -- CPU_ReadMem(4 bytes @ 0xE000ED88) -- CPU_WriteMem(4 bytes @ 0xE000ED88)
CoreSight components:ROMTbl 0 @ E00FF000 -- CPU_ReadMem(16 bytes @ 0xE00FF000) -- CPU_ReadMem(16 bytes @ 0xE000EFF0) -- CPU_ReadMem(16 bytes @ 0xE000EFE0)ROMTbl 0 [0]: FFF0F000, CID: B105E00D, PID: 000BB00C SCS -- CPU_ReadMem(16 bytes @ 0xE0001FF0) -- CPU_ReadMem(16 bytes @ 0xE0001FE0)ROMTbl 0 [1]: FFF02000, CID: B105E00D, PID: 003BB002 DWT -- CPU_ReadMem(16 bytes @ 0xE0002FF0) -- CPU_ReadMem(16 bytes @ 0xE0002FE0)ROMTbl 0 [2]: FFF03000, CID: B105E00D, PID: 002BB003 FPB
 -- CPU_ReadMem(16 bytes @ 0xE0000FF0) -- CPU_ReadMem(16 bytes @ 0xE0000FE0)ROMTbl 0 [3]: FFF01000, CID: B105E00D, PID: 003BB001 ITM -- CPU_ReadMem(16 bytes @ 0xE00FF010) -- CPU_ReadMem(16 bytes @ 0xE0040FF0) -- CPU_ReadMem(16 bytes @ 0xE0040FE0)ROMTbl 0 [4]: FFF41000, CID: B105900D, PID: 000BB9A1 TPIU -- CPU_ReadMem(16 bytes @ 0xE0041FF0) -- CPU_ReadMem(16 bytes @ 0xE0041FE0)ROMTbl 0 [5]: FFF42000, CID: B105900D, PID: 000BB925 ETM >0x0D TIF> >0x21 TIF>  returns 0x2BA01477 (0034ms, 0188ms total)
T0514 000:212 JLINK_GetDLLVersion()  returns 60005 (0000ms, 0188ms total)
T0514 000:212 JLINK_CORE_GetFound()  returns 0xE0000FF (0000ms, 0188ms total)
T0514 000:212 JLINK_GetDebugInfo(0x100) -- Value=0xE00FF000  returns 0x00 (0000ms, 0188ms total)
T0514 000:212 JLINK_GetDebugInfo(0x100) -- Value=0xE00FF000  returns 0x00 (0000ms, 0188ms total)
T0514 000:212 JLINK_GetDebugInfo(0x101) -- Value=0xE0041000  returns 0x00 (0000ms, 0188ms total)
T0514 000:212 JLINK_GetDebugInfo(0x102) -- Value=0x00000000  returns 0x00 (0000ms, 0188ms total)
T0514 000:212 JLINK_GetDebugInfo(0x103) -- Value=0xE0040000  returns 0x00 (0000ms, 0188ms total)
T0514 000:212 JLINK_GetDebugInfo(0x104) -- Value=0xE0000000  returns 0x00 (0000ms, 0188ms total)
T0514 000:212 JLINK_GetDebugInfo(0x105) -- Value=0xE0001000  returns 0x00 (0001ms, 0189ms total)
T0514 000:213 JLINK_GetDebugInfo(0x106) -- Value=0xE0002000  returns 0x00 (0000ms, 0189ms total)
T0514 000:213 JLINK_GetDebugInfo(0x107) -- Value=0xE000E000  returns 0x00 (0000ms, 0189ms total)
T0514 000:213 JLINK_GetDebugInfo(0x10C) -- Value=0xE000EDF0  returns 0x00 (0000ms, 0189ms total)
T0514 000:213 JLINK_ReadMemU32(0xE000EF40, 0x0001 Items, ...) -- CPU is running -- CPU_ReadMem(4 bytes @ 0xE000EF40) - Data: 21 00 11 10  returns 0x01 (0000ms, 0189ms total)
T0514 000:213 JLINK_ReadMemU32(0xE000EF44, 0x0001 Items, ...) -- CPU is running -- CPU_ReadMem(4 bytes @ 0xE000EF44) - Data: 11 00 00 11  returns 0x01 (0000ms, 0189ms total)
T0514 000:213 JLINK_ReadMemU32(0xE000ED00, 0x0001 Items, ...) -- CPU is running -- CPU_ReadMem(4 bytes @ 0xE000ED00) - Data: 41 C2 0F 41  returns 0x01 (0001ms, 0190ms total)
T0514 000:214 JLINK_SetResetType(JLINKARM_RESET_TYPE_NORMAL)  returns JLINKARM_RESET_TYPE_NORMAL (0000ms, 0190ms total)
T0514 000:214 JLINK_Reset() -- CPU is running -- CPU_WriteMem(4 bytes @ 0xE000EDF0) -- CPU is running -- CPU_WriteMem(4 bytes @ 0xE000EDFC) >0x35 TIF> -- CPU is running -- CPU_WriteMem(4 bytes @ 0xE000ED0C) -- CPU is running -- CPU_ReadMem(4 bytes @ 0xE000EDF0) -- CPU is running -- CPU_ReadMem(4 bytes @ 0xE000EDF0) -- CPU is running -- CPU_WriteMem(4 bytes @ 0xE000EDF0) -- CPU is running -- CPU_WriteMem(4 bytes @ 0xE000EDFC) -- CPU is running -- CPU_ReadMem(4 bytes @ 0xE000EDF0)
 -- CPU_WriteMem(4 bytes @ 0xE0002000) -- CPU_ReadMem(4 bytes @ 0xE000EDFC) -- CPU_ReadMem(4 bytes @ 0xE0001000) (0014ms, 0204ms total)
T0514 000:228 JLINK_ReadReg(R15 (PC))  returns 0x080066AC (0000ms, 0204ms total)
T0514 000:228 JLINK_ReadReg(XPSR)  returns 0x01000000 (0000ms, 0204ms total)
T0514 000:228 JLINK_Halt()  returns 0x00 (0000ms, 0204ms total)
T0514 000:228 JLINK_IsHalted()  returns TRUE (0000ms, 0204ms total)
T0514 000:228 JLINK_ReadMemU32(0xE000EDF0, 0x0001 Items, ...) -- CPU_ReadMem(4 bytes @ 0xE000EDF0) - Data: 03 00 03 00  returns 0x01 (0001ms, 0205ms total)
T0514 000:229 JLINK_WriteU32(0xE000EDF0, 0xA05F0003) -- CPU_WriteMem(4 bytes @ 0xE000EDF0)  returns 0x00 (0000ms, 0205ms total)
T0514 000:229 JLINK_WriteU32(0xE000EDFC, 0x01000000) -- CPU_WriteMem(4 bytes @ 0xE000EDFC)  returns 0x00 (0000ms, 0205ms total)
T0514 000:229 JLINK_GetHWStatus(...)  returns 0x00 (0001ms, 0206ms total)
T0514 000:230 JLINK_GetNumBPUnits(Type = 0xFFFFFF00)  returns 0x06 (0000ms, 0206ms total)
T0514 000:230 JLINK_GetNumBPUnits(Type = 0xF0)  returns 0x2000 (0000ms, 0206ms total)
T0514 000:230 JLINK_GetNumWPUnits()  returns 0x04 (0000ms, 0206ms total)
T0514 000:230 JLINK_GetSpeed()  returns 0x1770 (0000ms, 0206ms total)
T0514 000:230 JLINK_ReadMemU32(0xE000E004, 0x0001 Items, ...) -- CPU_ReadMem(4 bytes @ 0xE000E004) - Data: 02 00 00 00  returns 0x01 (0000ms, 0206ms total)
T0514 000:230 JLINK_ReadMemU32(0xE000E004, 0x0001 Items, ...) -- CPU_ReadMem(4 bytes @ 0xE000E004) - Data: 02 00 00 00  returns 0x01 (0001ms, 0207ms total)
T0514 000:231 JLINK_WriteMem(0xE0001000, 0x001C Bytes, ...) - Data: 01 00 00 00 00 00 00 00 00 00 00 00 00 00 00 00 ... -- CPU_WriteMem(28 bytes @ 0xE0001000)  returns 0x1C (0001ms, 0208ms total)
T0514 000:232 JLINK_ReadMem (0xE0001000, 0x001C Bytes, ...) -- CPU_ReadMem(28 bytes @ 0xE0001000) - Data: 01 00 00 40 00 00 00 00 00 00 00 00 00 00 00 00 ...  returns 0x00 (0000ms, 0208ms total)
T0514 000:232 JLINK_ReadReg(R15 (PC))  returns 0x080066AC (0000ms, 0208ms total)
T0514 000:232 JLINK_ReadReg(XPSR)  returns 0x01000000 (0000ms, 0208ms total)
T0514 000:318 JLINK_SetResetType(JLINKARM_RESET_TYPE_NORMAL)  returns JLINKARM_RESET_TYPE_NORMAL (0000ms, 0208ms total)
T0514 000:318 JLINK_Reset() -- CPU_WriteMem(4 bytes @ 0xE000EDF0) -- CPU_WriteMem(4 bytes @ 0xE000EDFC) >0x35 TIF> -- CPU_WriteMem(4 bytes @ 0xE000ED0C) -- CPU_ReadMem(4 bytes @ 0xE000EDF0) -- CPU_ReadMem(4 bytes @ 0xE000EDF0) -- CPU_WriteMem(4 bytes @ 0xE000EDF0) -- CPU_WriteMem(4 bytes @ 0xE000EDFC) -- CPU is running -- CPU_ReadMem(4 bytes @ 0xE000EDF0) -- CPU_WriteMem(4 bytes @ 0xE0002000) -- CPU_ReadMem(4 bytes @ 0xE000EDFC) -- CPU_ReadMem(4 bytes @ 0xE0001000) (0016ms, 0224ms total)
T0514 000:334 JLINK_ReadReg(R15 (PC))  returns 0x080066AC (0000ms, 0224ms total)
T0514 000:334 JLINK_ReadReg(XPSR)  returns 0x01000000 (0000ms, 0224ms total)
T0514 000:334 JLINK_ReadMemU32(0xE0001004, 0x0001 Items, ...) -- CPU_ReadMem(4 bytes @ 0xE0001004) - Data: 4E 10 00 00  returns 0x01 (0001ms, 0225ms total)
T0514 000:568 JLINK_ReadMem (0x080065AC, 0x003C Bytes, ...) -- CPU_ReadMem(128 bytes @ 0x08006580) -- Updating C cache (128 bytes @ 0x08006580) -- Read from C cache (60 bytes @ 0x080065AC) - Data: 06 90 02 20 8D F8 1C 00 8D F8 1D 00 00 20 8D F8 ...  returns 0x00 (0001ms, 0226ms total)
T0514 000:569 JLINK_ReadMem (0x080065E8, 0x003C Bytes, ...) -- CPU_ReadMem(64 bytes @ 0x08006600) -- Updating C cache (64 bytes @ 0x08006600) -- Read from C cache (60 bytes @ 0x080065E8) - Data: 2C 48 01 F0 4C FB 01 21 2A 48 01 F0 D0 FB 01 22 ...  returns 0x00 (0001ms, 0227ms total)
T0514 000:570 JLINK_ReadMem (0x08006624, 0x003C Bytes, ...) -- CPU_ReadMem(64 bytes @ 0x08006640) -- Updating C cache (64 bytes @ 0x08006640) -- Read from C cache (60 bytes @ 0x08006624) - Data: 40 F2 25 51 1C 48 01 F0 A5 FC 10 B3 1A 48 01 F0 ...  returns 0x00 (0001ms, 0228ms total)
T0514 000:571 JLINK_ReadMem (0x08006660, 0x003C Bytes, ...) -- CPU_ReadMem(64 bytes @ 0x08006680) -- Updating C cache (64 bytes @ 0x08006680) -- Read from C cache (60 bytes @ 0x08006660) - Data: 10 49 08 80 19 E0 0D 2C 06 D1 0E 48 00 88 40 F4 ...  returns 0x00 (0001ms, 0229ms total)
T0514 000:572 JLINK_ReadMem (0x0800669C, 0x003C Bytes, ...) -- CPU_ReadMem(64 bytes @ 0x080066C0) -- Updating C cache (64 bytes @ 0x080066C0) -- Read from C cache (60 bytes @ 0x0800669C) - Data: 00 10 01 40 00 00 02 40 70 00 00 20 58 F2 01 20 ...  returns 0x00 (0000ms, 0229ms total)
T26C8 002:150 JLINK_SetBPEx(Addr = 0x08000850, Type = 0xFFFFFFF2)  returns 0x00000001 (0000ms, 0229ms total)
T26C8 002:150 JLINK_Go() -- CPU_WriteMem(4 bytes @ 0xE0002000) -- CPU_ReadMem(4 bytes @ 0xE0001000) -- CPU_WriteMem(4 bytes @ 0xE0002008) -- CPU_WriteMem(4 bytes @ 0xE000200C) -- CPU_WriteMem(4 bytes @ 0xE0002010) -- CPU_WriteMem(4 bytes @ 0xE0002014) -- CPU_WriteMem(4 bytes @ 0xE0002018) -- CPU_WriteMem(4 bytes @ 0xE000201C) -- CPU_WriteMem(4 bytes @ 0xE0001004) (0003ms, 0232ms total)
T26C8 002:253 JLINK_IsHalted()  returns TRUE (0002ms, 0234ms total)
T26C8 002:255 JLINK_Halt()  returns 0x00 (0000ms, 0232ms total)
T26C8 002:255 JLINK_IsHalted()  returns TRUE (0000ms, 0232ms total)
T26C8 002:255 JLINK_IsHalted()  returns TRUE (0000ms, 0232ms total)
T26C8 002:255 JLINK_IsHalted()  returns TRUE (0000ms, 0232ms total)
T26C8 002:255 JLINK_ReadReg(R15 (PC))  returns 0x08000850 (0000ms, 0232ms total)
T26C8 002:255 JLINK_ReadReg(XPSR)  returns 0x21000000 (0000ms, 0232ms total)
T26C8 002:255 JLINK_ClrBPEx(BPHandle = 0x00000001)  returns 0x00 (0000ms, 0232ms total)
T26C8 002:255 JLINK_ReadMemU32(0xE000ED30, 0x0001 Items, ...) -- CPU_ReadMem(4 bytes @ 0xE000ED30) - Data: 02 00 00 00  returns 0x01 (0000ms, 0232ms total)
T26C8 002:255 JLINK_ReadMemU32(0xE0001028, 0x0001 Items, ...) -- CPU_ReadMem(4 bytes @ 0xE0001028) - Data: 00 00 00 00  returns 0x01 (0001ms, 0233ms total)
T26C8 002:256 JLINK_ReadMemU32(0xE0001038, 0x0001 Items, ...) -- CPU_ReadMem(4 bytes @ 0xE0001038) - Data: 00 02 00 00  returns 0x01 (0000ms, 0233ms total)
T26C8 002:256 JLINK_ReadMemU32(0xE0001048, 0x0001 Items, ...) -- CPU_ReadMem(4 bytes @ 0xE0001048) - Data: 00 00 00 00  returns 0x01 (0001ms, 0234ms total)
T26C8 002:257 JLINK_ReadMemU32(0xE0001058, 0x0001 Items, ...) -- CPU_ReadMem(4 bytes @ 0xE0001058) - Data: 00 00 00 00  returns 0x01 (0000ms, 0234ms total)
T26C8 002:258 JLINK_ReadReg(R0)  returns 0x2001F380 (0000ms, 0235ms total)
T26C8 002:258 JLINK_ReadReg(R1)  returns 0x2001F580 (0000ms, 0235ms total)
T26C8 002:258 JLINK_ReadReg(R2)  returns 0x2001F580 (0000ms, 0235ms total)
T26C8 002:258 JLINK_ReadReg(R3)  returns 0x2001F580 (0000ms, 0235ms total)
T26C8 002:258 JLINK_ReadReg(R4)  returns 0x00000000 (0000ms, 0235ms total)
T26C8 002:258 JLINK_ReadReg(R5)  returns 0x2001F320 (0000ms, 0235ms total)
T26C8 002:258 JLINK_ReadReg(R6)  returns 0x00000000 (0000ms, 0235ms total)
T26C8 002:258 JLINK_ReadReg(R7)  returns 0x00000000 (0000ms, 0235ms total)
T26C8 002:258 JLINK_ReadReg(R8)  returns 0x00000000 (0000ms, 0235ms total)
T26C8 002:258 JLINK_ReadReg(R9)  returns 0x00000000 (0000ms, 0235ms total)
T26C8 002:258 JLINK_ReadReg(R10)  returns 0x0800C4CC (0000ms, 0235ms total)
T26C8 002:258 JLINK_ReadReg(R11)  returns 0x00000000 (0000ms, 0235ms total)
T26C8 002:258 JLINK_ReadReg(R12)  returns 0x2001F360 (0000ms, 0235ms total)
T26C8 002:258 JLINK_ReadReg(R13 (SP))  returns 0x2001F980 (0000ms, 0235ms total)
T26C8 002:258 JLINK_ReadReg(R14)  returns 0x08000279 (0000ms, 0235ms total)
T26C8 002:258 JLINK_ReadReg(R15 (PC))  returns 0x08000850 (0000ms, 0235ms total)
T26C8 002:258 JLINK_ReadReg(XPSR)  returns 0x21000000 (0000ms, 0235ms total)
T26C8 002:258 JLINK_ReadReg(MSP)  returns 0x2001F980 (0000ms, 0235ms total)
T26C8 002:258 JLINK_ReadReg(PSP)  returns 0x00000000 (0000ms, 0235ms total)
T26C8 002:258 JLINK_ReadReg(CFBP)  returns 0x04000000 (0000ms, 0235ms total)
T26C8 002:258 JLINK_ReadReg(FPSCR)  returns 0x03000000 (0003ms, 0238ms total)
T26C8 002:261 JLINK_ReadReg(FPS0)  returns 0x00000000 (0000ms, 0238ms total)
T26C8 002:261 JLINK_ReadReg(FPS1)  returns 0x00000000 (0000ms, 0238ms total)
T26C8 002:261 JLINK_ReadReg(FPS2)  returns 0x00000000 (0000ms, 0238ms total)
T26C8 002:261 JLINK_ReadReg(FPS3)  returns 0x00000000 (0000ms, 0238ms total)
T26C8 002:261 JLINK_ReadReg(FPS4)  returns 0x00000000 (0000ms, 0238ms total)
T26C8 002:261 JLINK_ReadReg(FPS5)  returns 0x00000000 (0000ms, 0238ms total)
T26C8 002:261 JLINK_ReadReg(FPS6)  returns 0x00000000 (0000ms, 0238ms total)
T26C8 002:261 JLINK_ReadReg(FPS7)  returns 0x00000000 (0000ms, 0238ms total)
T26C8 002:261 JLINK_ReadReg(FPS8)  returns 0x00000000 (0000ms, 0238ms total)
T26C8 002:261 JLINK_ReadReg(FPS9)  returns 0x00000000 (0000ms, 0238ms total)
T26C8 002:261 JLINK_ReadReg(FPS10)  returns 0x00000000 (0000ms, 0238ms total)
T26C8 002:261 JLINK_ReadReg(FPS11)  returns 0x00000000 (0000ms, 0238ms total)
T26C8 002:261 JLINK_ReadReg(FPS12)  returns 0x00000000 (0000ms, 0238ms total)
T26C8 002:261 JLINK_ReadReg(FPS13)  returns 0x00000000 (0000ms, 0238ms total)
T26C8 002:261 JLINK_ReadReg(FPS14)  returns 0x00000000 (0000ms, 0238ms total)
T26C8 002:261 JLINK_ReadReg(FPS15)  returns 0x00000000 (0000ms, 0238ms total)
T26C8 002:261 JLINK_ReadReg(FPS16)  returns 0x00000000 (0000ms, 0238ms total)
T26C8 002:261 JLINK_ReadReg(FPS17)  returns 0x00000000 (0000ms, 0238ms total)
T26C8 002:261 JLINK_ReadReg(FPS18)  returns 0x00000000 (0000ms, 0238ms total)
T26C8 002:261 JLINK_ReadReg(FPS19)  returns 0x00000000 (0000ms, 0238ms total)
T26C8 002:261 JLINK_ReadReg(FPS20)  returns 0x00000000 (0000ms, 0238ms total)
T26C8 002:261 JLINK_ReadReg(FPS21)  returns 0x00000000 (0000ms, 0238ms total)
T26C8 002:261 JLINK_ReadReg(FPS22)  returns 0x00000000 (0000ms, 0238ms total)
T26C8 002:261 JLINK_ReadReg(FPS23)  returns 0x00000000 (0000ms, 0238ms total)
T26C8 002:261 JLINK_ReadReg(FPS24)  returns 0x00000000 (0000ms, 0238ms total)
T26C8 002:261 JLINK_ReadReg(FPS25)  returns 0x00000000 (0000ms, 0238ms total)
T26C8 002:261 JLINK_ReadReg(FPS26)  returns 0x00000000 (0000ms, 0238ms total)
T26C8 002:261 JLINK_ReadReg(FPS27)  returns 0x00000000 (0000ms, 0238ms total)
T26C8 002:261 JLINK_ReadReg(FPS28)  returns 0x00000000 (0000ms, 0238ms total)
T26C8 002:261 JLINK_ReadReg(FPS29)  returns 0x00000000 (0000ms, 0238ms total)
T26C8 002:261 JLINK_ReadReg(FPS30)  returns 0x00000000 (0000ms, 0238ms total)
T26C8 002:261 JLINK_ReadReg(FPS31)  returns 0x00000000 (0000ms, 0238ms total)
T0514 002:262 JLINK_ReadMem (0x00000000, 0x0001 Bytes, ...) -- CPU_ReadMem(4 bytes @ 0x00000004) -- CPU_ReadMem(64 bytes @ 0x08000000) -- Updating C cache (64 bytes @ 0x08000000) -- Read from C cache (1 bytes @ 0x08000000) - Data: 80  returns 0x00 (0016ms, 0254ms total)
T0514 002:282 JLINK_ReadMemU32(0xE0001004, 0x0001 Items, ...) -- CPU_ReadMem(4 bytes @ 0xE0001004) - Data: 8C 36 01 00  returns 0x01 (0000ms, 0254ms total)
T0514 002:285 JLINK_ReadMem (0x0800084E, 0x0002 Bytes, ...) -- CPU_ReadMem(64 bytes @ 0x08000840) -- Updating C cache (64 bytes @ 0x08000840) -- Read from C cache (2 bytes @ 0x0800084E) - Data: CA E6  returns 0x00 (0000ms, 0254ms total)
T0514 002:285 JLINK_ReadMem (0x08000850, 0x003C Bytes, ...) -- CPU_ReadMem(64 bytes @ 0x08000880) -- Updating C cache (64 bytes @ 0x08000880) -- Read from C cache (60 bytes @ 0x08000850) - Data: 4F F4 A0 60 05 F0 4A FF A8 20 05 F0 01 FE 4F F4 ...  returns 0x00 (0001ms, 0255ms total)
T0514 007:183 JLINK_ReadMem (0x2001F23C, 0x0002 Bytes, ...) -- CPU_ReadMem(64 bytes @ 0x2001F200) -- Updating C cache (64 bytes @ 0x2001F200) -- Read from C cache (2 bytes @ 0x2001F23C) - Data: 00 00  returns 0x00 (0000ms, 0255ms total)
T0514 007:183 JLINK_ReadMem (0x2001F23E, 0x0002 Bytes, ...) -- Read from C cache (2 bytes @ 0x2001F23E) - Data: 00 00  returns 0x00 (0001ms, 0256ms total)
T0514 007:184 JLINK_ReadMem (0x2001F240, 0x0002 Bytes, ...) -- CPU_ReadMem(64 bytes @ 0x2001F240) -- Updating C cache (64 bytes @ 0x2001F240) -- Read from C cache (2 bytes @ 0x2001F240) - Data: 00 00  returns 0x00 (0000ms, 0256ms total)
T0514 007:184 JLINK_ReadMem (0x2001F242, 0x0001 Bytes, ...) -- Read from C cache (1 bytes @ 0x2001F242) - Data: 00  returns 0x00 (0000ms, 0256ms total)
T0514 007:184 JLINK_ReadMem (0x2001F244, 0x0002 Bytes, ...) -- Read from C cache (2 bytes @ 0x2001F244) - Data: 00 00  returns 0x00 (0000ms, 0256ms total)
T0514 007:184 JLINK_ReadMem (0x2001F246, 0x0002 Bytes, ...) -- Read from C cache (2 bytes @ 0x2001F246) - Data: 00 00  returns 0x00 (0000ms, 0256ms total)
T0514 007:184 JLINK_ReadMem (0x2001F248, 0x0002 Bytes, ...) -- Read from C cache (2 bytes @ 0x2001F248) - Data: 00 00  returns 0x00 (0000ms, 0256ms total)
T26C8 009:472 JLINK_Step() -- Read from C cache (2 bytes @ 0x08000850) -- CPU_ReadMem(4 bytes @ 0xE000ED18) -- CPU_WriteMem(4 bytes @ 0xE000ED18) -- CPU_ReadMem(4 bytes @ 0xE000ED18) -- CPU_WriteMem(4 bytes @ 0xE000ED18) -- Read from C cache (2 bytes @ 0x08000852) -- Simulated  returns 0x00 (0003ms, 0259ms total)
T26C8 009:475 JLINK_ReadReg(R15 (PC))  returns 0x08000854 (0000ms, 0259ms total)
T26C8 009:475 JLINK_ReadReg(XPSR)  returns 0x21000000 (0000ms, 0259ms total)
T26C8 009:475 JLINK_SetBPEx(Addr = 0x08000858, Type = 0xFFFFFFF2)  returns 0x00000002 (0000ms, 0259ms total)
T26C8 009:475 JLINK_Go() -- CPU_WriteMem(4 bytes @ 0xE0002000) -- CPU_ReadMem(4 bytes @ 0xE0001000) -- CPU_WriteMem(4 bytes @ 0xE0002008) -- CPU_WriteMem(4 bytes @ 0xE0001004) (0003ms, 0262ms total)
T26C8 009:578 JLINK_IsHalted()  returns TRUE (0002ms, 0264ms total)
T26C8 009:580 JLINK_Halt()  returns 0x00 (0000ms, 0262ms total)
T26C8 009:580 JLINK_IsHalted()  returns TRUE (0000ms, 0262ms total)
T26C8 009:580 JLINK_IsHalted()  returns TRUE (0000ms, 0262ms total)
T26C8 009:580 JLINK_IsHalted()  returns TRUE (0000ms, 0262ms total)
T26C8 009:580 JLINK_ReadReg(R15 (PC))  returns 0x08000858 (0000ms, 0262ms total)
T26C8 009:580 JLINK_ReadReg(XPSR)  returns 0x21000000 (0000ms, 0262ms total)
T26C8 009:580 JLINK_ClrBPEx(BPHandle = 0x00000002)  returns 0x00 (0000ms, 0262ms total)
T26C8 009:580 JLINK_ReadMemU32(0xE000ED30, 0x0001 Items, ...) -- CPU_ReadMem(4 bytes @ 0xE000ED30) - Data: 02 00 00 00  returns 0x01 (0001ms, 0263ms total)
T26C8 009:581 JLINK_ReadMemU32(0xE0001028, 0x0001 Items, ...) -- CPU_ReadMem(4 bytes @ 0xE0001028) - Data: 00 00 00 00  returns 0x01 (0000ms, 0263ms total)
T26C8 009:581 JLINK_ReadMemU32(0xE0001038, 0x0001 Items, ...) -- CPU_ReadMem(4 bytes @ 0xE0001038) - Data: 00 02 00 00  returns 0x01 (0001ms, 0264ms total)
T26C8 009:582 JLINK_ReadMemU32(0xE0001048, 0x0001 Items, ...) -- CPU_ReadMem(4 bytes @ 0xE0001048) - Data: 00 00 00 00  returns 0x01 (0000ms, 0264ms total)
T26C8 009:582 JLINK_ReadMemU32(0xE0001058, 0x0001 Items, ...) -- CPU_ReadMem(4 bytes @ 0xE0001058) - Data: 00 00 00 00  returns 0x01 (0001ms, 0265ms total)
T26C8 009:583 JLINK_ReadReg(R0)  returns 0x00000500 (0000ms, 0265ms total)
T26C8 009:583 JLINK_ReadReg(R1)  returns 0x05FA0500 (0000ms, 0265ms total)
T26C8 009:583 JLINK_ReadReg(R2)  returns 0xE000ED0C (0000ms, 0265ms total)
T26C8 009:583 JLINK_ReadReg(R3)  returns 0x2001F580 (0000ms, 0265ms total)
T26C8 009:583 JLINK_ReadReg(R4)  returns 0x00000000 (0000ms, 0265ms total)
T26C8 009:583 JLINK_ReadReg(R5)  returns 0x2001F320 (0000ms, 0265ms total)
T26C8 009:583 JLINK_ReadReg(R6)  returns 0x00000000 (0000ms, 0265ms total)
T26C8 009:583 JLINK_ReadReg(R7)  returns 0x00000000 (0000ms, 0265ms total)
T26C8 009:583 JLINK_ReadReg(R8)  returns 0x00000000 (0000ms, 0265ms total)
T26C8 009:583 JLINK_ReadReg(R9)  returns 0x00000000 (0000ms, 0265ms total)
T26C8 009:583 JLINK_ReadReg(R10)  returns 0x0800C4CC (0000ms, 0265ms total)
T26C8 009:583 JLINK_ReadReg(R11)  returns 0x00000000 (0000ms, 0265ms total)
T26C8 009:583 JLINK_ReadReg(R12)  returns 0x2001F360 (0000ms, 0265ms total)
T26C8 009:583 JLINK_ReadReg(R13 (SP))  returns 0x2001F980 (0000ms, 0265ms total)
T26C8 009:583 JLINK_ReadReg(R14)  returns 0x08000859 (0000ms, 0265ms total)
T26C8 009:583 JLINK_ReadReg(R15 (PC))  returns 0x08000858 (0000ms, 0265ms total)
T26C8 009:583 JLINK_ReadReg(XPSR)  returns 0x21000000 (0000ms, 0265ms total)
T26C8 009:583 JLINK_ReadReg(MSP)  returns 0x2001F980 (0000ms, 0265ms total)
T26C8 009:584 JLINK_ReadReg(PSP)  returns 0x00000000 (0000ms, 0266ms total)
T26C8 009:584 JLINK_ReadReg(CFBP)  returns 0x04000000 (0000ms, 0266ms total)
T26C8 009:584 JLINK_ReadReg(FPSCR)  returns 0x03000000 (0003ms, 0269ms total)
T26C8 009:587 JLINK_ReadReg(FPS0)  returns 0x00000000 (0000ms, 0269ms total)
T26C8 009:587 JLINK_ReadReg(FPS1)  returns 0x00000000 (0000ms, 0269ms total)
T26C8 009:587 JLINK_ReadReg(FPS2)  returns 0x00000000 (0000ms, 0269ms total)
T26C8 009:587 JLINK_ReadReg(FPS3)  returns 0x00000000 (0000ms, 0269ms total)
T26C8 009:587 JLINK_ReadReg(FPS4)  returns 0x00000000 (0000ms, 0269ms total)
T26C8 009:587 JLINK_ReadReg(FPS5)  returns 0x00000000 (0000ms, 0269ms total)
T26C8 009:587 JLINK_ReadReg(FPS6)  returns 0x00000000 (0000ms, 0269ms total)
T26C8 009:587 JLINK_ReadReg(FPS7)  returns 0x00000000 (0000ms, 0269ms total)
T26C8 009:587 JLINK_ReadReg(FPS8)  returns 0x00000000 (0000ms, 0269ms total)
T26C8 009:587 JLINK_ReadReg(FPS9)  returns 0x00000000 (0000ms, 0269ms total)
T26C8 009:587 JLINK_ReadReg(FPS10)  returns 0x00000000 (0000ms, 0269ms total)
T26C8 009:587 JLINK_ReadReg(FPS11)  returns 0x00000000 (0000ms, 0269ms total)
T26C8 009:587 JLINK_ReadReg(FPS12)  returns 0x00000000 (0000ms, 0269ms total)
T26C8 009:587 JLINK_ReadReg(FPS13)  returns 0x00000000 (0000ms, 0269ms total)
T26C8 009:587 JLINK_ReadReg(FPS14)  returns 0x00000000 (0000ms, 0269ms total)
T26C8 009:587 JLINK_ReadReg(FPS15)  returns 0x00000000 (0000ms, 0269ms total)
T26C8 009:587 JLINK_ReadReg(FPS16)  returns 0x00000000 (0000ms, 0269ms total)
T26C8 009:587 JLINK_ReadReg(FPS17)  returns 0x00000000 (0001ms, 0270ms total)
T26C8 009:588 JLINK_ReadReg(FPS18)  returns 0x00000000 (0000ms, 0270ms total)
T26C8 009:588 JLINK_ReadReg(FPS19)  returns 0x00000000 (0000ms, 0270ms total)
T26C8 009:588 JLINK_ReadReg(FPS20)  returns 0x00000000 (0000ms, 0270ms total)
T26C8 009:588 JLINK_ReadReg(FPS21)  returns 0x00000000 (0000ms, 0270ms total)
T26C8 009:588 JLINK_ReadReg(FPS22)  returns 0x00000000 (0000ms, 0270ms total)
T26C8 009:588 JLINK_ReadReg(FPS23)  returns 0x00000000 (0000ms, 0270ms total)
T26C8 009:588 JLINK_ReadReg(FPS24)  returns 0x00000000 (0000ms, 0270ms total)
T26C8 009:588 JLINK_ReadReg(FPS25)  returns 0x00000000 (0000ms, 0270ms total)
T26C8 009:588 JLINK_ReadReg(FPS26)  returns 0x00000000 (0000ms, 0270ms total)
T26C8 009:588 JLINK_ReadReg(FPS27)  returns 0x00000000 (0000ms, 0270ms total)
T26C8 009:588 JLINK_ReadReg(FPS28)  returns 0x00000000 (0000ms, 0270ms total)
T26C8 009:588 JLINK_ReadReg(FPS29)  returns 0x00000000 (0000ms, 0270ms total)
T26C8 009:588 JLINK_ReadReg(FPS30)  returns 0x00000000 (0000ms, 0270ms total)
T26C8 009:588 JLINK_ReadReg(FPS31)  returns 0x00000000 (0000ms, 0270ms total)
T0514 009:588 JLINK_ReadMem (0x00000000, 0x0001 Bytes, ...) -- CPU_ReadMem(4 bytes @ 0x00000004) -- CPU_ReadMem(64 bytes @ 0x08000000) -- Updating C cache (64 bytes @ 0x08000000) -- Read from C cache (1 bytes @ 0x08000000) - Data: 80  returns 0x00 (0001ms, 0271ms total)
T0514 009:589 JLINK_ReadMemU32(0xE0001004, 0x0001 Items, ...) -- CPU_ReadMem(4 bytes @ 0xE0001004) - Data: A6 36 01 00  returns 0x01 (0001ms, 0272ms total)
T0514 009:597 JLINK_ReadMem (0x0800084E, 0x0002 Bytes, ...) -- CPU_ReadMem(64 bytes @ 0x08000840) -- Updating C cache (64 bytes @ 0x08000840) -- Read from C cache (2 bytes @ 0x0800084E) - Data: CA E6  returns 0x00 (0001ms, 0273ms total)
T0514 009:598 JLINK_ReadMem (0x08000850, 0x003C Bytes, ...) -- CPU_ReadMem(64 bytes @ 0x08000880) -- Updating C cache (64 bytes @ 0x08000880) -- Read from C cache (60 bytes @ 0x08000850) - Data: 4F F4 A0 60 05 F0 4A FF A8 20 05 F0 01 FE 4F F4 ...  returns 0x00 (0001ms, 0274ms total)
T26C8 010:211 JLINK_Step() -- Read from C cache (2 bytes @ 0x08000858) -- Simulated  returns 0x00 (0001ms, 0275ms total)
T26C8 010:212 JLINK_ReadReg(R15 (PC))  returns 0x0800085A (0000ms, 0275ms total)
T26C8 010:212 JLINK_ReadReg(XPSR)  returns 0x21000000 (0000ms, 0275ms total)
T26C8 010:212 JLINK_SetBPEx(Addr = 0x0800085E, Type = 0xFFFFFFF2)  returns 0x00000003 (0000ms, 0275ms total)
T26C8 010:212 JLINK_Go() -- CPU_WriteMem(4 bytes @ 0xE0002000) -- CPU_ReadMem(4 bytes @ 0xE0001000) -- CPU_WriteMem(4 bytes @ 0xE0002008) -- CPU_WriteMem(4 bytes @ 0xE0001004) (0003ms, 0278ms total)
T26C8 010:315 JLINK_IsHalted()  returns TRUE (0002ms, 0280ms total)
T26C8 010:317 JLINK_Halt()  returns 0x00 (0000ms, 0278ms total)
T26C8 010:317 JLINK_IsHalted()  returns TRUE (0000ms, 0278ms total)
T26C8 010:317 JLINK_IsHalted()  returns TRUE (0000ms, 0278ms total)
T26C8 010:317 JLINK_IsHalted()  returns TRUE (0000ms, 0278ms total)
T26C8 010:317 JLINK_ReadReg(R15 (PC))  returns 0x0800085E (0000ms, 0278ms total)
T26C8 010:317 JLINK_ReadReg(XPSR)  returns 0x41000000 (0000ms, 0278ms total)
T26C8 010:317 JLINK_ClrBPEx(BPHandle = 0x00000003)  returns 0x00 (0000ms, 0278ms total)
T26C8 010:317 JLINK_ReadMemU32(0xE000ED30, 0x0001 Items, ...) -- CPU_ReadMem(4 bytes @ 0xE000ED30) - Data: 02 00 00 00  returns 0x01 (0001ms, 0279ms total)
T26C8 010:318 JLINK_ReadMemU32(0xE0001028, 0x0001 Items, ...) -- CPU_ReadMem(4 bytes @ 0xE0001028) - Data: 00 00 00 00  returns 0x01 (0000ms, 0279ms total)
T26C8 010:318 JLINK_ReadMemU32(0xE0001038, 0x0001 Items, ...) -- CPU_ReadMem(4 bytes @ 0xE0001038) - Data: 00 02 00 00  returns 0x01 (0001ms, 0280ms total)
T26C8 010:319 JLINK_ReadMemU32(0xE0001048, 0x0001 Items, ...) -- CPU_ReadMem(4 bytes @ 0xE0001048) - Data: 00 00 00 00  returns 0x01 (0000ms, 0280ms total)
T26C8 010:319 JLINK_ReadMemU32(0xE0001058, 0x0001 Items, ...) -- CPU_ReadMem(4 bytes @ 0xE0001058) - Data: 00 00 00 00  returns 0x01 (0001ms, 0281ms total)
T26C8 010:320 JLINK_ReadReg(R0)  returns 0x00005208 (0000ms, 0281ms total)
T26C8 010:320 JLINK_ReadReg(R1)  returns 0x20000068 (0000ms, 0281ms total)
T26C8 010:320 JLINK_ReadReg(R2)  returns 0x20000066 (0000ms, 0281ms total)
T26C8 010:320 JLINK_ReadReg(R3)  returns 0x2001F580 (0000ms, 0281ms total)
T26C8 010:320 JLINK_ReadReg(R4)  returns 0x00000000 (0000ms, 0281ms total)
T26C8 010:320 JLINK_ReadReg(R5)  returns 0x2001F320 (0000ms, 0281ms total)
T26C8 010:320 JLINK_ReadReg(R6)  returns 0x00000000 (0000ms, 0281ms total)
T26C8 010:320 JLINK_ReadReg(R7)  returns 0x00000000 (0000ms, 0281ms total)
T26C8 010:320 JLINK_ReadReg(R8)  returns 0x00000000 (0000ms, 0281ms total)
T26C8 010:320 JLINK_ReadReg(R9)  returns 0x00000000 (0000ms, 0281ms total)
T26C8 010:320 JLINK_ReadReg(R10)  returns 0x0800C4CC (0000ms, 0281ms total)
T26C8 010:320 JLINK_ReadReg(R11)  returns 0x00000000 (0000ms, 0281ms total)
T26C8 010:320 JLINK_ReadReg(R12)  returns 0x2001F360 (0000ms, 0281ms total)
T26C8 010:320 JLINK_ReadReg(R13 (SP))  returns 0x2001F980 (0000ms, 0281ms total)
T26C8 010:320 JLINK_ReadReg(R14)  returns 0x0800646D (0000ms, 0281ms total)
T26C8 010:321 JLINK_ReadReg(R15 (PC))  returns 0x0800085E (0000ms, 0282ms total)
T26C8 010:321 JLINK_ReadReg(XPSR)  returns 0x41000000 (0000ms, 0282ms total)
T26C8 010:321 JLINK_ReadReg(MSP)  returns 0x2001F980 (0000ms, 0282ms total)
T26C8 010:321 JLINK_ReadReg(PSP)  returns 0x00000000 (0000ms, 0282ms total)
T26C8 010:321 JLINK_ReadReg(CFBP)  returns 0x04000000 (0000ms, 0282ms total)
T26C8 010:321 JLINK_ReadReg(FPSCR)  returns 0x03000000 (0003ms, 0285ms total)
T26C8 010:324 JLINK_ReadReg(FPS0)  returns 0x00000000 (0000ms, 0285ms total)
T26C8 010:324 JLINK_ReadReg(FPS1)  returns 0x00000000 (0000ms, 0285ms total)
T26C8 010:324 JLINK_ReadReg(FPS2)  returns 0x00000000 (0000ms, 0285ms total)
T26C8 010:324 JLINK_ReadReg(FPS3)  returns 0x00000000 (0000ms, 0285ms total)
T26C8 010:324 JLINK_ReadReg(FPS4)  returns 0x00000000 (0000ms, 0285ms total)
T26C8 010:324 JLINK_ReadReg(FPS5)  returns 0x00000000 (0000ms, 0285ms total)
T26C8 010:324 JLINK_ReadReg(FPS6)  returns 0x00000000 (0000ms, 0285ms total)
T26C8 010:324 JLINK_ReadReg(FPS7)  returns 0x00000000 (0000ms, 0285ms total)
T26C8 010:324 JLINK_ReadReg(FPS8)  returns 0x00000000 (0000ms, 0285ms total)
T26C8 010:324 JLINK_ReadReg(FPS9)  returns 0x00000000 (0000ms, 0285ms total)
T26C8 010:324 JLINK_ReadReg(FPS10)  returns 0x00000000 (0000ms, 0285ms total)
T26C8 010:324 JLINK_ReadReg(FPS11)  returns 0x00000000 (0000ms, 0285ms total)
T26C8 010:324 JLINK_ReadReg(FPS12)  returns 0x00000000 (0000ms, 0285ms total)
T26C8 010:324 JLINK_ReadReg(FPS13)  returns 0x00000000 (0000ms, 0285ms total)
T26C8 010:324 JLINK_ReadReg(FPS14)  returns 0x00000000 (0000ms, 0285ms total)
T26C8 010:324 JLINK_ReadReg(FPS15)  returns 0x00000000 (0000ms, 0285ms total)
T26C8 010:324 JLINK_ReadReg(FPS16)  returns 0x00000000 (0000ms, 0285ms total)
T26C8 010:324 JLINK_ReadReg(FPS17)  returns 0x00000000 (0000ms, 0285ms total)
T26C8 010:324 JLINK_ReadReg(FPS18)  returns 0x00000000 (0000ms, 0285ms total)
T26C8 010:324 JLINK_ReadReg(FPS19)  returns 0x00000000 (0000ms, 0285ms total)
T26C8 010:324 JLINK_ReadReg(FPS20)  returns 0x00000000 (0000ms, 0285ms total)
T26C8 010:324 JLINK_ReadReg(FPS21)  returns 0x00000000 (0000ms, 0285ms total)
T26C8 010:324 JLINK_ReadReg(FPS22)  returns 0x00000000 (0000ms, 0285ms total)
T26C8 010:324 JLINK_ReadReg(FPS23)  returns 0x00000000 (0000ms, 0285ms total)
T26C8 010:324 JLINK_ReadReg(FPS24)  returns 0x00000000 (0001ms, 0286ms total)
T26C8 010:325 JLINK_ReadReg(FPS25)  returns 0x00000000 (0000ms, 0286ms total)
T26C8 010:325 JLINK_ReadReg(FPS26)  returns 0x00000000 (0000ms, 0286ms total)
T26C8 010:325 JLINK_ReadReg(FPS27)  returns 0x00000000 (0000ms, 0286ms total)
T26C8 010:325 JLINK_ReadReg(FPS28)  returns 0x00000000 (0000ms, 0286ms total)
T26C8 010:325 JLINK_ReadReg(FPS29)  returns 0x00000000 (0000ms, 0286ms total)
T26C8 010:325 JLINK_ReadReg(FPS30)  returns 0x00000000 (0000ms, 0286ms total)
T26C8 010:325 JLINK_ReadReg(FPS31)  returns 0x00000000 (0000ms, 0286ms total)
T0514 010:325 JLINK_ReadMem (0x00000000, 0x0001 Bytes, ...) -- CPU_ReadMem(4 bytes @ 0x00000004) -- CPU_ReadMem(64 bytes @ 0x08000000) -- Updating C cache (64 bytes @ 0x08000000) -- Read from C cache (1 bytes @ 0x08000000) - Data: 80  returns 0x00 (0001ms, 0287ms total)
T0514 010:326 JLINK_ReadMemU32(0xE0001004, 0x0001 Items, ...) -- CPU_ReadMem(4 bytes @ 0xE0001004) - Data: F1 36 01 00  returns 0x01 (0001ms, 0288ms total)
T0514 010:332 JLINK_ReadMem (0x08000858, 0x003C Bytes, ...) -- CPU_ReadMem(128 bytes @ 0x08000840) -- Updating C cache (128 bytes @ 0x08000840) -- Read from C cache (60 bytes @ 0x08000858) - Data: A8 20 05 F0 01 FE 4F F4 E1 30 05 F0 8C FE 4F F4 ...  returns 0x00 (0001ms, 0289ms total)
T26C8 011:251 JLINK_Step() -- Read from C cache (2 bytes @ 0x0800085E) -- Read from C cache (2 bytes @ 0x08000860) -- Simulated  returns 0x00 (0000ms, 0289ms total)
T26C8 011:251 JLINK_ReadReg(R15 (PC))  returns 0x08000862 (0000ms, 0289ms total)
T26C8 011:251 JLINK_ReadReg(XPSR)  returns 0x41000000 (0000ms, 0289ms total)
T26C8 011:251 JLINK_SetBPEx(Addr = 0x08000866, Type = 0xFFFFFFF2)  returns 0x00000004 (0000ms, 0289ms total)
T26C8 011:251 JLINK_Go() -- CPU_WriteMem(4 bytes @ 0xE0002000) -- CPU_ReadMem(4 bytes @ 0xE0001000) -- CPU_WriteMem(4 bytes @ 0xE0002008) -- CPU_WriteMem(4 bytes @ 0xE0001004) (0003ms, 0292ms total)
T26C8 011:354 JLINK_IsHalted()  returns TRUE (0002ms, 0294ms total)
T26C8 011:356 JLINK_Halt()  returns 0x00 (0000ms, 0292ms total)
T26C8 011:356 JLINK_IsHalted()  returns TRUE (0000ms, 0292ms total)
T26C8 011:356 JLINK_IsHalted()  returns TRUE (0000ms, 0292ms total)
T26C8 011:356 JLINK_IsHalted()  returns TRUE (0000ms, 0292ms total)
T26C8 011:356 JLINK_ReadReg(R15 (PC))  returns 0x08000866 (0000ms, 0292ms total)
T26C8 011:356 JLINK_ReadReg(XPSR)  returns 0x01000000 (0000ms, 0292ms total)
T26C8 011:356 JLINK_ClrBPEx(BPHandle = 0x00000004)  returns 0x00 (0000ms, 0292ms total)
T26C8 011:356 JLINK_ReadMemU32(0xE000ED30, 0x0001 Items, ...) -- CPU_ReadMem(4 bytes @ 0xE000ED30) - Data: 02 00 00 00  returns 0x01 (0001ms, 0293ms total)
T26C8 011:357 JLINK_ReadMemU32(0xE0001028, 0x0001 Items, ...) -- CPU_ReadMem(4 bytes @ 0xE0001028) - Data: 00 00 00 00  returns 0x01 (0000ms, 0293ms total)
T26C8 011:357 JLINK_ReadMemU32(0xE0001038, 0x0001 Items, ...) -- CPU_ReadMem(4 bytes @ 0xE0001038) - Data: 00 02 00 00  returns 0x01 (0001ms, 0294ms total)
T26C8 011:358 JLINK_ReadMemU32(0xE0001048, 0x0001 Items, ...) -- CPU_ReadMem(4 bytes @ 0xE0001048) - Data: 00 00 00 00  returns 0x01 (0000ms, 0294ms total)
T26C8 011:358 JLINK_ReadMemU32(0xE0001058, 0x0001 Items, ...) -- CPU_ReadMem(4 bytes @ 0xE0001058) - Data: 00 00 00 00  returns 0x01 (0001ms, 0295ms total)
T26C8 011:359 JLINK_ReadReg(R0)  returns 0x2001F95C (0000ms, 0295ms total)
T26C8 011:359 JLINK_ReadReg(R1)  returns 0x000000F0 (0000ms, 0295ms total)
T26C8 011:359 JLINK_ReadReg(R2)  returns 0x00000003 (0000ms, 0295ms total)
T26C8 011:359 JLINK_ReadReg(R3)  returns 0x00000002 (0000ms, 0295ms total)
T26C8 011:359 JLINK_ReadReg(R4)  returns 0x00000000 (0000ms, 0295ms total)
T26C8 011:359 JLINK_ReadReg(R5)  returns 0x2001F320 (0000ms, 0295ms total)
T26C8 011:359 JLINK_ReadReg(R6)  returns 0x00000000 (0000ms, 0295ms total)
T26C8 011:359 JLINK_ReadReg(R7)  returns 0x00000000 (0000ms, 0295ms total)
T26C8 011:359 JLINK_ReadReg(R8)  returns 0x00000000 (0000ms, 0295ms total)
T26C8 011:359 JLINK_ReadReg(R9)  returns 0x00000000 (0000ms, 0295ms total)
T26C8 011:359 JLINK_ReadReg(R10)  returns 0x0800C4CC (0000ms, 0295ms total)
T26C8 011:359 JLINK_ReadReg(R11)  returns 0x00000000 (0000ms, 0295ms total)
T26C8 011:359 JLINK_ReadReg(R12)  returns 0x00000150 (0000ms, 0295ms total)
T26C8 011:359 JLINK_ReadReg(R13 (SP))  returns 0x2001F980 (0000ms, 0295ms total)
T26C8 011:359 JLINK_ReadReg(R14)  returns 0x0800661F (0000ms, 0295ms total)
T26C8 011:359 JLINK_ReadReg(R15 (PC))  returns 0x08000866 (0000ms, 0295ms total)
T26C8 011:359 JLINK_ReadReg(XPSR)  returns 0x01000000 (0000ms, 0295ms total)
T26C8 011:359 JLINK_ReadReg(MSP)  returns 0x2001F980 (0001ms, 0296ms total)
T26C8 011:360 JLINK_ReadReg(PSP)  returns 0x00000000 (0000ms, 0296ms total)
T26C8 011:360 JLINK_ReadReg(CFBP)  returns 0x04000000 (0000ms, 0296ms total)
T26C8 011:360 JLINK_ReadReg(FPSCR)  returns 0x03000000 (0003ms, 0299ms total)
T26C8 011:363 JLINK_ReadReg(FPS0)  returns 0x00000000 (0000ms, 0299ms total)
T26C8 011:363 JLINK_ReadReg(FPS1)  returns 0x00000000 (0000ms, 0299ms total)
T26C8 011:363 JLINK_ReadReg(FPS2)  returns 0x00000000 (0000ms, 0299ms total)
T26C8 011:363 JLINK_ReadReg(FPS3)  returns 0x00000000 (0000ms, 0299ms total)
T26C8 011:363 JLINK_ReadReg(FPS4)  returns 0x00000000 (0000ms, 0299ms total)
T26C8 011:363 JLINK_ReadReg(FPS5)  returns 0x00000000 (0000ms, 0299ms total)
T26C8 011:363 JLINK_ReadReg(FPS6)  returns 0x00000000 (0000ms, 0299ms total)
T26C8 011:363 JLINK_ReadReg(FPS7)  returns 0x00000000 (0000ms, 0299ms total)
T26C8 011:363 JLINK_ReadReg(FPS8)  returns 0x00000000 (0000ms, 0299ms total)
T26C8 011:363 JLINK_ReadReg(FPS9)  returns 0x00000000 (0000ms, 0299ms total)
T26C8 011:363 JLINK_ReadReg(FPS10)  returns 0x00000000 (0000ms, 0299ms total)
T26C8 011:363 JLINK_ReadReg(FPS11)  returns 0x00000000 (0000ms, 0299ms total)
T26C8 011:363 JLINK_ReadReg(FPS12)  returns 0x00000000 (0000ms, 0299ms total)
T26C8 011:363 JLINK_ReadReg(FPS13)  returns 0x00000000 (0000ms, 0299ms total)
T26C8 011:363 JLINK_ReadReg(FPS14)  returns 0x00000000 (0000ms, 0299ms total)
T26C8 011:363 JLINK_ReadReg(FPS15)  returns 0x00000000 (0000ms, 0299ms total)
T26C8 011:363 JLINK_ReadReg(FPS16)  returns 0x00000000 (0001ms, 0300ms total)
T26C8 011:364 JLINK_ReadReg(FPS17)  returns 0x00000000 (0000ms, 0300ms total)
T26C8 011:364 JLINK_ReadReg(FPS18)  returns 0x00000000 (0000ms, 0300ms total)
T26C8 011:364 JLINK_ReadReg(FPS19)  returns 0x00000000 (0000ms, 0300ms total)
T26C8 011:364 JLINK_ReadReg(FPS20)  returns 0x00000000 (0000ms, 0300ms total)
T26C8 011:364 JLINK_ReadReg(FPS21)  returns 0x00000000 (0000ms, 0300ms total)
T26C8 011:364 JLINK_ReadReg(FPS22)  returns 0x00000000 (0000ms, 0300ms total)
T26C8 011:364 JLINK_ReadReg(FPS23)  returns 0x00000000 (0000ms, 0300ms total)
T26C8 011:364 JLINK_ReadReg(FPS24)  returns 0x00000000 (0000ms, 0300ms total)
T26C8 011:364 JLINK_ReadReg(FPS25)  returns 0x00000000 (0000ms, 0300ms total)
T26C8 011:364 JLINK_ReadReg(FPS26)  returns 0x00000000 (0000ms, 0300ms total)
T26C8 011:364 JLINK_ReadReg(FPS27)  returns 0x00000000 (0000ms, 0300ms total)
T26C8 011:364 JLINK_ReadReg(FPS28)  returns 0x00000000 (0000ms, 0300ms total)
T26C8 011:364 JLINK_ReadReg(FPS29)  returns 0x00000000 (0000ms, 0300ms total)
T26C8 011:364 JLINK_ReadReg(FPS30)  returns 0x00000000 (0000ms, 0300ms total)
T26C8 011:364 JLINK_ReadReg(FPS31)  returns 0x00000000 (0000ms, 0300ms total)
T0514 011:366 JLINK_ReadMem (0x00000000, 0x0001 Bytes, ...) -- CPU_ReadMem(4 bytes @ 0x00000004) -- CPU_ReadMem(64 bytes @ 0x08000000) -- Updating C cache (64 bytes @ 0x08000000) -- Read from C cache (1 bytes @ 0x08000000) - Data: 80  returns 0x00 (0001ms, 0301ms total)
T0514 011:367 JLINK_ReadMemU32(0xE0001004, 0x0001 Items, ...) -- CPU_ReadMem(4 bytes @ 0xE0001004) - Data: BD 3B 01 00  returns 0x01 (0001ms, 0302ms total)
T0514 011:378 JLINK_ReadMem (0x08000866, 0x0002 Bytes, ...) -- CPU_ReadMem(64 bytes @ 0x08000840) -- Updating C cache (64 bytes @ 0x08000840) -- Read from C cache (2 bytes @ 0x08000866) - Data: 4F F4  returns 0x00 (0001ms, 0303ms total)
T0514 011:379 JLINK_ReadMem (0x08000868, 0x003C Bytes, ...) -- CPU_ReadMem(64 bytes @ 0x08000880) -- Updating C cache (64 bytes @ 0x08000880) -- Read from C cache (60 bytes @ 0x08000868) - Data: E1 31 2A 20 05 F0 5A FD FF F7 5F FE 3C F2 01 20 ...  returns 0x00 (0000ms, 0303ms total)
T26C8 012:387 JLINK_Step() -- Read from C cache (2 bytes @ 0x08000866) -- Read from C cache (2 bytes @ 0x08000868) -- Simulated  returns 0x00 (0001ms, 0304ms total)
T26C8 012:388 JLINK_ReadReg(R15 (PC))  returns 0x0800086A (0000ms, 0304ms total)
T26C8 012:388 JLINK_ReadReg(XPSR)  returns 0x01000000 (0000ms, 0304ms total)
T26C8 012:388 JLINK_Step() -- Read from C cache (2 bytes @ 0x0800086A) -- Simulated  returns 0x00 (0000ms, 0304ms total)
T26C8 012:388 JLINK_ReadReg(R15 (PC))  returns 0x0800086C (0000ms, 0304ms total)
T26C8 012:388 JLINK_ReadReg(XPSR)  returns 0x01000000 (0000ms, 0304ms total)
T26C8 012:388 JLINK_SetBPEx(Addr = 0x08000870, Type = 0xFFFFFFF2)  returns 0x00000005 (0000ms, 0304ms total)
T26C8 012:388 JLINK_Go() -- CPU_WriteMem(4 bytes @ 0xE0002000) -- CPU_ReadMem(4 bytes @ 0xE0001000) -- CPU_WriteMem(4 bytes @ 0xE0002008) -- CPU_WriteMem(4 bytes @ 0xE0001004) (0003ms, 0307ms total)
T26C8 012:491 JLINK_IsHalted()  returns TRUE (0002ms, 0309ms total)
T26C8 012:493 JLINK_Halt()  returns 0x00 (0000ms, 0307ms total)
T26C8 012:493 JLINK_IsHalted()  returns TRUE (0000ms, 0307ms total)
T26C8 012:493 JLINK_IsHalted()  returns TRUE (0000ms, 0307ms total)
T26C8 012:493 JLINK_IsHalted()  returns TRUE (0000ms, 0307ms total)
T26C8 012:493 JLINK_ReadReg(R15 (PC))  returns 0x08000870 (0000ms, 0307ms total)
T26C8 012:493 JLINK_ReadReg(XPSR)  returns 0x01000000 (0000ms, 0307ms total)
T26C8 012:493 JLINK_ClrBPEx(BPHandle = 0x00000005)  returns 0x00 (0000ms, 0307ms total)
T26C8 012:493 JLINK_ReadMemU32(0xE000ED30, 0x0001 Items, ...) -- CPU_ReadMem(4 bytes @ 0xE000ED30) - Data: 02 00 00 00  returns 0x01 (0001ms, 0308ms total)
T26C8 012:494 JLINK_ReadMemU32(0xE0001028, 0x0001 Items, ...) -- CPU_ReadMem(4 bytes @ 0xE0001028) - Data: 00 00 00 00  returns 0x01 (0000ms, 0308ms total)
T26C8 012:494 JLINK_ReadMemU32(0xE0001038, 0x0001 Items, ...) -- CPU_ReadMem(4 bytes @ 0xE0001038) - Data: 00 02 00 00  returns 0x01 (0001ms, 0309ms total)
T26C8 012:495 JLINK_ReadMemU32(0xE0001048, 0x0001 Items, ...) -- CPU_ReadMem(4 bytes @ 0xE0001048) - Data: 00 00 00 00  returns 0x01 (0000ms, 0309ms total)
T26C8 012:495 JLINK_ReadMemU32(0xE0001058, 0x0001 Items, ...) -- CPU_ReadMem(4 bytes @ 0xE0001058) - Data: 00 00 00 00  returns 0x01 (0001ms, 0310ms total)
T26C8 012:496 JLINK_ReadReg(R0)  returns 0x40004400 (0000ms, 0310ms total)
T26C8 012:496 JLINK_ReadReg(R1)  returns 0x00000001 (0000ms, 0310ms total)
T26C8 012:496 JLINK_ReadReg(R2)  returns 0x00002008 (0000ms, 0310ms total)
T26C8 012:496 JLINK_ReadReg(R3)  returns 0x0501BD00 (0000ms, 0310ms total)
T26C8 012:496 JLINK_ReadReg(R4)  returns 0x00000000 (0000ms, 0310ms total)
T26C8 012:496 JLINK_ReadReg(R5)  returns 0x2001F320 (0000ms, 0310ms total)
T26C8 012:496 JLINK_ReadReg(R6)  returns 0x00000000 (0000ms, 0310ms total)
T26C8 012:496 JLINK_ReadReg(R7)  returns 0x00000000 (0000ms, 0310ms total)
T26C8 012:496 JLINK_ReadReg(R8)  returns 0x00000000 (0000ms, 0310ms total)
T26C8 012:496 JLINK_ReadReg(R9)  returns 0x00000000 (0000ms, 0310ms total)
T26C8 012:496 JLINK_ReadReg(R10)  returns 0x0800C4CC (0000ms, 0310ms total)
T26C8 012:496 JLINK_ReadReg(R11)  returns 0x00000000 (0000ms, 0310ms total)
T26C8 012:496 JLINK_ReadReg(R12)  returns 0x00000150 (0000ms, 0310ms total)
T26C8 012:496 JLINK_ReadReg(R13 (SP))  returns 0x2001F980 (0000ms, 0310ms total)
T26C8 012:496 JLINK_ReadReg(R14)  returns 0x0800639D (0000ms, 0310ms total)
T26C8 012:496 JLINK_ReadReg(R15 (PC))  returns 0x08000870 (0000ms, 0310ms total)
T26C8 012:496 JLINK_ReadReg(XPSR)  returns 0x01000000 (0000ms, 0310ms total)
T26C8 012:496 JLINK_ReadReg(MSP)  returns 0x2001F980 (0001ms, 0311ms total)
T26C8 012:497 JLINK_ReadReg(PSP)  returns 0x00000000 (0000ms, 0311ms total)
T26C8 012:497 JLINK_ReadReg(CFBP)  returns 0x04000000 (0000ms, 0311ms total)
T26C8 012:497 JLINK_ReadReg(FPSCR)  returns 0x03000000 (0003ms, 0314ms total)
T26C8 012:500 JLINK_ReadReg(FPS0)  returns 0x00000000 (0000ms, 0314ms total)
T26C8 012:500 JLINK_ReadReg(FPS1)  returns 0x00000000 (0000ms, 0314ms total)
T26C8 012:500 JLINK_ReadReg(FPS2)  returns 0x00000000 (0000ms, 0314ms total)
T26C8 012:500 JLINK_ReadReg(FPS3)  returns 0x00000000 (0000ms, 0314ms total)
T26C8 012:500 JLINK_ReadReg(FPS4)  returns 0x00000000 (0000ms, 0314ms total)
T26C8 012:500 JLINK_ReadReg(FPS5)  returns 0x00000000 (0000ms, 0314ms total)
T26C8 012:500 JLINK_ReadReg(FPS6)  returns 0x00000000 (0000ms, 0314ms total)
T26C8 012:500 JLINK_ReadReg(FPS7)  returns 0x00000000 (0000ms, 0314ms total)
T26C8 012:500 JLINK_ReadReg(FPS8)  returns 0x00000000 (0000ms, 0314ms total)
T26C8 012:500 JLINK_ReadReg(FPS9)  returns 0x00000000 (0000ms, 0314ms total)
T26C8 012:500 JLINK_ReadReg(FPS10)  returns 0x00000000 (0000ms, 0314ms total)
T26C8 012:500 JLINK_ReadReg(FPS11)  returns 0x00000000 (0000ms, 0314ms total)
T26C8 012:500 JLINK_ReadReg(FPS12)  returns 0x00000000 (0000ms, 0314ms total)
T26C8 012:500 JLINK_ReadReg(FPS13)  returns 0x00000000 (0000ms, 0314ms total)
T26C8 012:500 JLINK_ReadReg(FPS14)  returns 0x00000000 (0000ms, 0314ms total)
T26C8 012:500 JLINK_ReadReg(FPS15)  returns 0x00000000 (0000ms, 0314ms total)
T26C8 012:500 JLINK_ReadReg(FPS16)  returns 0x00000000 (0000ms, 0314ms total)
T26C8 012:500 JLINK_ReadReg(FPS17)  returns 0x00000000 (0000ms, 0314ms total)
T26C8 012:500 JLINK_ReadReg(FPS18)  returns 0x00000000 (0000ms, 0314ms total)
T26C8 012:500 JLINK_ReadReg(FPS19)  returns 0x00000000 (0000ms, 0314ms total)
T26C8 012:500 JLINK_ReadReg(FPS20)  returns 0x00000000 (0000ms, 0314ms total)
T26C8 012:500 JLINK_ReadReg(FPS21)  returns 0x00000000 (0000ms, 0314ms total)
T26C8 012:500 JLINK_ReadReg(FPS22)  returns 0x00000000 (0001ms, 0315ms total)
T26C8 012:501 JLINK_ReadReg(FPS23)  returns 0x00000000 (0000ms, 0315ms total)
T26C8 012:501 JLINK_ReadReg(FPS24)  returns 0x00000000 (0000ms, 0315ms total)
T26C8 012:501 JLINK_ReadReg(FPS25)  returns 0x00000000 (0000ms, 0315ms total)
T26C8 012:501 JLINK_ReadReg(FPS26)  returns 0x00000000 (0000ms, 0315ms total)
T26C8 012:501 JLINK_ReadReg(FPS27)  returns 0x00000000 (0000ms, 0315ms total)
T26C8 012:501 JLINK_ReadReg(FPS28)  returns 0x00000000 (0000ms, 0315ms total)
T26C8 012:501 JLINK_ReadReg(FPS29)  returns 0x00000000 (0000ms, 0315ms total)
T26C8 012:501 JLINK_ReadReg(FPS30)  returns 0x00000000 (0000ms, 0315ms total)
T26C8 012:501 JLINK_ReadReg(FPS31)  returns 0x00000000 (0000ms, 0315ms total)
T0514 012:501 JLINK_ReadMem (0x00000000, 0x0001 Bytes, ...) -- CPU_ReadMem(4 bytes @ 0x00000004) -- CPU_ReadMem(64 bytes @ 0x08000000) -- Updating C cache (64 bytes @ 0x08000000) -- Read from C cache (1 bytes @ 0x08000000) - Data: 80  returns 0x00 (0002ms, 0317ms total)
T0514 012:503 JLINK_ReadMemU32(0xE0001004, 0x0001 Items, ...) -- CPU_ReadMem(4 bytes @ 0xE0001004) - Data: D5 3F 01 00  returns 0x01 (0000ms, 0317ms total)
T0514 012:513 JLINK_ReadMem (0x08000870, 0x003C Bytes, ...) -- CPU_ReadMem(128 bytes @ 0x08000840) -- Updating C cache (128 bytes @ 0x08000840) -- Read from C cache (60 bytes @ 0x08000870) - Data: FF F7 5F FE 3C F2 01 20 46 75 6C 6C 20 53 69 7A ...  returns 0x00 (0001ms, 0318ms total)
T26C8 013:941 JLINK_Step() -- Read from C cache (2 bytes @ 0x08000870) -- Read from C cache (2 bytes @ 0x08000872) -- Simulated  returns 0x00 (0000ms, 0318ms total)
T26C8 013:941 JLINK_ReadReg(R15 (PC))  returns 0x08000532 (0001ms, 0319ms total)
T26C8 013:942 JLINK_ReadReg(XPSR)  returns 0x01000000 (0000ms, 0319ms total)
T26C8 013:942 JLINK_ReadReg(R0)  returns 0x40004400 (0000ms, 0319ms total)
T26C8 013:942 JLINK_ReadReg(R1)  returns 0x00000001 (0000ms, 0319ms total)
T26C8 013:942 JLINK_ReadReg(R2)  returns 0x00002008 (0000ms, 0319ms total)
T26C8 013:942 JLINK_ReadReg(R3)  returns 0x0501BD00 (0000ms, 0319ms total)
T26C8 013:942 JLINK_ReadReg(R4)  returns 0x00000000 (0000ms, 0319ms total)
T26C8 013:942 JLINK_ReadReg(R5)  returns 0x2001F320 (0000ms, 0319ms total)
T26C8 013:942 JLINK_ReadReg(R6)  returns 0x00000000 (0000ms, 0319ms total)
T26C8 013:942 JLINK_ReadReg(R7)  returns 0x00000000 (0000ms, 0319ms total)
T26C8 013:942 JLINK_ReadReg(R8)  returns 0x00000000 (0000ms, 0319ms total)
T26C8 013:942 JLINK_ReadReg(R9)  returns 0x00000000 (0000ms, 0319ms total)
T26C8 013:942 JLINK_ReadReg(R10)  returns 0x0800C4CC (0000ms, 0319ms total)
T26C8 013:942 JLINK_ReadReg(R11)  returns 0x00000000 (0000ms, 0319ms total)
T26C8 013:942 JLINK_ReadReg(R12)  returns 0x00000150 (0000ms, 0319ms total)
T26C8 013:942 JLINK_ReadReg(R13 (SP))  returns 0x2001F980 (0000ms, 0319ms total)
T26C8 013:942 JLINK_ReadReg(R14)  returns 0x08000875 (0000ms, 0319ms total)
T26C8 013:942 JLINK_ReadReg(R15 (PC))  returns 0x08000532 (0000ms, 0319ms total)
T26C8 013:942 JLINK_ReadReg(XPSR)  returns 0x01000000 (0000ms, 0319ms total)
T26C8 013:942 JLINK_ReadReg(MSP)  returns 0x2001F980 (0000ms, 0319ms total)
T26C8 013:942 JLINK_ReadReg(PSP)  returns 0x00000000 (0000ms, 0319ms total)
T26C8 013:942 JLINK_ReadReg(CFBP)  returns 0x04000000 (0000ms, 0319ms total)
T26C8 013:942 JLINK_ReadReg(FPSCR)  returns 0x03000000 (0000ms, 0319ms total)
T26C8 013:942 JLINK_ReadReg(FPS0)  returns 0x00000000 (0000ms, 0319ms total)
T26C8 013:942 JLINK_ReadReg(FPS1)  returns 0x00000000 (0000ms, 0319ms total)
T26C8 013:942 JLINK_ReadReg(FPS2)  returns 0x00000000 (0000ms, 0319ms total)
T26C8 013:942 JLINK_ReadReg(FPS3)  returns 0x00000000 (0000ms, 0319ms total)
T26C8 013:942 JLINK_ReadReg(FPS4)  returns 0x00000000 (0000ms, 0319ms total)
T26C8 013:942 JLINK_ReadReg(FPS5)  returns 0x00000000 (0001ms, 0320ms total)
T26C8 013:943 JLINK_ReadReg(FPS6)  returns 0x00000000 (0000ms, 0320ms total)
T26C8 013:943 JLINK_ReadReg(FPS7)  returns 0x00000000 (0000ms, 0320ms total)
T26C8 013:943 JLINK_ReadReg(FPS8)  returns 0x00000000 (0000ms, 0320ms total)
T26C8 013:943 JLINK_ReadReg(FPS9)  returns 0x00000000 (0000ms, 0320ms total)
T26C8 013:943 JLINK_ReadReg(FPS10)  returns 0x00000000 (0000ms, 0320ms total)
T26C8 013:943 JLINK_ReadReg(FPS11)  returns 0x00000000 (0000ms, 0320ms total)
T26C8 013:943 JLINK_ReadReg(FPS12)  returns 0x00000000 (0000ms, 0320ms total)
T26C8 013:943 JLINK_ReadReg(FPS13)  returns 0x00000000 (0000ms, 0320ms total)
